
can0  1FE   [8]  EA FF 00 00 00 00 00 00
  can0  1FF   [8]  00 00 00 00 00 00 00 00
  can0  1FE   [8]  EB FF 00 00 00 00 00 00
  can0  1FF   [8]  00 00 00 00 00 00 00 00
  can0  1FE   [8]  F7 FF 00 00 00 00 00 00
  can0  1FF   [8]  00 00 00 00 00 00 00 00
  can0  1FE   [8]  F2 FF 00 00 00 00 00 00
  can0  1FF   [8]  00 00 00 00 00 00 00 00
  can0  1FE   [8]  F0 FF 00 00 00 00 00 00
  can0  1FF   [8]  00 00 00 00 00 00 00 00
  can0  1FE   [8]  F1 FF 00 00 00 00 00 00
  can0  1FF   [8]  00 00 00 00 00 00 00 00
  can0  1FE   [8]  F6 FF 00 00 00 00 00 00
  can0  1FF   [8]  00 00 00 00 00 00 00 00
  can0  1FE   [8]  F0 FF 00 00 00 00 00 00
  can0  1FF   [8]  00 00 00 00 00 00 00 00
  can0  1FE   [8]  EF FF 00 00 00 00 00 00
  can0  1FF   [8]  00 00 00 00 00 00 00 00
  can0  1FE   [8]  ED FF 00 00 00 00 00 00
  can0  1FF   [8]  00 00 00 00 00 00 00 00
  can0  1FE   [8]  EB FF 00 00 00 00 00 00
  can0  1FF   [8]  00 00 00 00 00 00 00 00
  can0  1FE   [8]  F9 FF 00 00 00 00 00 00
  can0  1FF   [8]  00 00 00 00 00 00 00 00
  can0  1FE   [8]  F9 FF 00 00 00 00 00 00
  can0  1FF   [8]  00 00 00 00 00 00 00 00
  can0  101   [8]  BE C1 00 00 00 01 00 03
  can0  1FE   [8]  F9 FF 00 00 00 00 00 00
  can0  1FF   [8]  00 00 00 00 00 00 00 00
  can0  1FE   [8]  F9 FF 00 00 00 00 00 00
  can0  1FF   [8]  00 00 00 00 00 00 00 00
  can0  1FE   [8]  F6 FF 00 00 00 00 00 00
  can0  1FF   [8]  00 00 00 00 00 00 00 00
  can0  1FE   [8]  F5 FF 00 00 00 00 00 00
  can0  1FF   [8]  00 00 00 00 00 00 00 00
  can0  1FE   [8]  F5 FF 00 00 00 00 00 00
  can0  1FF   [8]  00 00 00 00 00 00 00 00
  can0  1FE   [8]  FE FF 00 00 00 00 00 00
  can0  1FF   [8]  00 00 00 00 00 00 00 00
  can0  1FE   [8]  F8 FF 00 00 00 00 00 00
  can0  1FF   [8]  00 00 00 00 00 00 00 00
  can0  1FE   [8]  FB FF 00 00 00 00 00 00
  can0  1FF   [8]  00 00 00 00 00 00 00 00
  can0  1FE   [8]  FB FF 00 00 00 00 00 00
  can0  1FF   [8]  00 00 00 00 00 00 00 00
  can0  1FE   [8]  03 00 00 00 00 00 00 00
  can0  1FF   [8]  00 00 00 00 00 00 00 00
  can0  1FE   [8]  FB FF 00 00 00 00 00 00
  can0  1FF   [8]  00 00 00 00 00 00 00 00
  can0  1FE   [8]  F6 FF 00 00 00 00 00 00
  can0  1FF   [8]  00 00 00 00 00 00 00 00
  can0  1FE   [8]  FB FF 00 00 00 00 00 00
  can0  1FF   [8]  00 00 00 00 00 00 00 00
  can0  1FE   [8]  FB FF 00 00 00 00 00 00
  can0  1FF   [8]  00 00 00 00 00 00 00 00
  can0  100   [6]  00 00 10 01 08 00
  can0  110   [8]  00 00 00 00 00 00 00 00
  can0  510   [8]  00 56 00 00 00 00 00 00
  can0  512   [7]  D2 0F 00 00 00 01 01
  can0  1FE   [8]  FC FF 00 00 00 00 00 00
  can0  517   [8]  00 00 00 00 00 00 00 00
  can0  1FF   [8]  00 00 00 00 00 00 00 00
  can0  1FE   [8]  FB FF 00 00 00 00 00 00
  can0  1FF   [8]  00 00 00 00 00 00 00 00
  can0  1FE   [8]  F7 FF 00 00 00 00 00 00
  can0  1FF   [8]  00 00 00 00 00 00 00 00
  can0  1FE   [8]  FE FF 00 00 00 00 00 00
  can0  133   [5]  D0 00 64 64 64
  can0  1FF   [8]  00 00 00 00 00 00 00 00
  can0  104   [8]  58 58 58 64 00 41 55 00
  can0  1FE   [8]  F3 FF 00 00 00 00 00 00
  can0  1FF   [8]  00 00 00 00 00 00 00 00
  can0  1FE   [8]  F5 FF 00 00 00 00 00 00
  can0  1FF   [8]  00 00 00 00 00 00 00 00
  can0  602   [8]  04 00 00 00 00 00 C8 80
  can0  603   [8]  02 00 90 01 68 10 C8 EB
  can0  1FE   [8]  FC FF 00 00 00 00 00 00
  can0  604   [8]  24 10 A2 0F 64 00 11 00
  can0  1FF   [8]  00 00 00 00 00 00 00 00
  can0  1FE   [8]  F3 FF 00 00 00 00 00 00
  can0  1FF   [8]  00 00 00 00 00 00 00 00
  can0  1FE   [8]  FD FF 00 00 00 00 00 00
  can0  1FF   [8]  00 00 00 00 00 00 00 00
  can0  1FE   [8]  F3 FF 00 00 00 00 00 00
  can0  1FF   [8]  00 00 00 00 00 00 00 00
  can0  1FE   [8]  ED FF 00 00 00 00 00 00
  can0  1FF   [8]  00 00 00 00 00 00 00 00
  can0  1FE   [8]  EF FF 00 00 00 00 00 00
  can0  1FF   [8]  00 00 00 00 00 00 00 00
  can0  101   [8]  59 C2 00 00 00 01 00 03
  can0  1FE   [8]  E8 FF 00 00 00 00 00 00
  can0  1FF   [8]  00 00 00 00 00 00 00 00
  can0  1FE   [8]  E8 FF 00 00 00 00 00 00
  can0  5A1   [7]  00 44 44 00 00 75 05
  can0  1FF   [8]  00 00 00 00 00 00 00 00
  can0  1FE   [8]  F6 FF 00 00 00 00 00 00
  can0  1FF   [8]  00 00 00 00 00 00 00 00
  can0  1FE   [8]  F6 FF 00 00 00 00 00 00
  can0  1FF   [8]  00 00 00 00 00 00 00 00
  can0  1FE   [8]  EF FF 00 00 00 00 00 00
  can0  1FF   [8]  00 00 00 00 00 00 00 00
  can0  1FE   [8]  F6 FF 00 00 00 00 00 00
  can0  1FF   [8]  00 00 00 00 00 00 00 00
  can0  1FE   [8]  EE FF 00 00 00 00 00 00
  can0  1FF   [8]  00 00 00 00 00 00 00 00
  can0  1FE   [8]  EE FF 00 00 00 00 00 00
  can0  1FF   [8]  00 00 00 00 00 00 00 00
  can0  1FE   [8]  F6 FF 00 00 00 00 00 00
  can0  1FF   [8]  00 00 00 00 00 00 00 00
  can0  1FE   [8]  F9 FF 00 00 00 00 00 00
  can0  1FF   [8]  00 00 00 00 00 00 00 00
  can0  1FE   [8]  F6 FF 00 00 00 00 00 00
  can0  1FF   [8]  00 00 00 00 00 00 00 00
  can0  1FE   [8]  F9 FF 00 00 00 00 00 00
  can0  1FF   [8]  00 00 00 00 00 00 00 00
  can0  1FE   [8]  F9 FF 00 00 00 00 00 00
  can0  1FF   [8]  00 00 00 00 00 00 00 00
  can0  1FE   [8]  F9 FF 00 00 00 00 00 00
  can0  1FF   [8]  00 00 00 00 00 00 00 00
  can0  1FE   [8]  F9 FF 00 00 00 00 00 00
  can0  1FF   [8]  00 00 00 00 00 00 00 00
  can0  1FE   [8]  F9 FF 00 00 00 00 00 00
  can0  1FF   [8]  00 00 00 00 00 00 00 00
  can0  1FE   [8]  F5 FF 00 00 00 00 00 00
  can0  1FF   [8]  00 00 00 00 00 00 00 00
  can0  1FE   [8]  F7 FF 00 00 00 00 00 00
  can0  1FF   [8]  00 00 00 00 00 00 00 00
  can0  1FE   [8]  FB FF 00 00 00 00 00 00
  can0  1FF   [8]  00 00 00 00 00 00 00 00
  can0  1FE   [8]  F2 FF 00 00 00 00 00 00
  can0  1FF   [8]  00 00 00 00 00 00 00 00
  can0  1FE   [8]  F7 FF 00 00 00 00 00 00
  can0  1FF   [8]  00 00 00 00 00 00 00 00
  can0  1FE   [8]  F7 FF 00 00 00 00 00 00
  can0  1FF   [8]  00 00 00 00 00 00 00 00
  can0  1FE   [8]  FF FF 00 00 00 00 00 00
  can0  1FF   [8]  00 00 00 00 00 00 00 00
  can0  1FE   [8]  FB FF 00 00 00 00 00 00
  can0  1FF   [8]  00 00 00 00 00 00 00 00
  can0  1FE   [8]  FC FF 00 00 00 00 00 00
  can0  1FF   [8]  00 00 00 00 00 00 00 00
  can0  1FE   [8]  F4 FF 00 00 00 00 00 00
  can0  1FF   [8]  00 00 00 00 00 00 00 00
  can0  1FE   [8]  F8 FF 00 00 00 00 00 00
  can0  101   [8]  04 C3 00 00 00 01 00 03
  can0  1FF   [8]  00 00 00 00 00 00 00 00
  can0  1FE   [8]  F8 FF 00 00 00 00 00 00
  can0  1FF   [8]  00 00 00 00 00 00 00 00
  can0  1FE   [8]  FB FF 00 00 00 00 00 00
  can0  1FF   [8]  00 00 00 00 00 00 00 00
  can0  1FE   [8]  FB FF 00 00 00 00 00 00
  can0  1FF   [8]  00 00 00 00 00 00 00 00
  can0  1FE   [8]  F8 FF 00 00 00 00 00 00
  can0  1FF   [8]  00 00 00 00 00 00 00 00
  can0  1FE   [8]  EC FF 00 00 00 00 00 00
  can0  1FF   [8]  00 00 00 00 00 00 00 00
  can0  1FE   [8]  F3 FF 00 00 00 00 00 00
  can0  1FF   [8]  00 00 00 00 00 00 00 00
  can0  1FE   [8]  ED FF 00 00 00 00 00 00
  can0  1FF   [8]  00 00 00 00 00 00 00 00
  can0  1FE   [8]  F3 FF 00 00 00 00 00 00
  can0  1FF   [8]  00 00 00 00 00 00 00 00
  can0  1FE   [8]  F4 FF 00 00 00 00 00 00
  can0  1FF   [8]  00 00 00 00 00 00 00 00
  can0  1FE   [8]  ED FF 00 00 00 00 00 00
  can0  1FF   [8]  00 00 00 00 00 00 00 00
  can0  1FE   [8]  F6 FF 00 00 00 00 00 00
  can0  1FF   [8]  00 00 00 00 00 00 00 00
  can0  100   [6]  00 00 F0 FF 07 00
  can0  110   [8]  00 00 00 00 00 00 00 00
  can0  510   [8]  00 56 00 00 00 00 00 00
  can0  1FE   [8]  F6 FF 00 00 00 00 00 00
  can0  512   [7]  D2 0F 00 00 00 01 01
  can0  517   [8]  00 00 00 00 00 00 00 00
  can0  1FF   [8]  00 00 00 00 00 00 00 00
  can0  1FE   [8]  F0 FF 00 00 00 00 00 00
  can0  1FF   [8]  00 00 00 00 00 00 00 00
  can0  1FE   [8]  F1 FF 00 00 00 00 00 00
  can0  1FF   [8]  00 00 00 00 00 00 00 00
  can0  1FE   [8]  F6 FF 00 00 00 00 00 00
  can0  1FF   [8]  00 00 00 00 00 00 00 00
  can0  1FE   [8]  F9 FF 00 00 00 00 00 00
  can0  1FF   [8]  00 00 00 00 00 00 00 00
  can0  1FE   [8]  F6 FF 00 00 00 00 00 00
  can0  1FF   [8]  00 00 00 00 00 00 00 00
  can0  602   [8]  04 00 00 00 00 00 C9 9D
  can0  133   [5]  D0 00 64 64 64
  can0  603   [8]  02 00 90 01 68 10 C9 F6
